Time,V(0),V(N001),V(N002),V(N003),V(N004),V(N005),I(C1),I(I1),I(I2),I(L1),I(L2),I(R1),I(R2),I(R3),I(R4),
0,0,0,0,0,0,0,0,0,0,0,0,0,0,0,0,
5e-05,0,0.855019,0.544187,0.544351,0.82226,0.545989,3.27594e-05,0.00314108,0.00314108,0.00041113,0.00272995,-3.27594e-05,-0.00276271,-0.00310832,-3.27594e-05,
0.0001,0,1.13747,0.517058,0.517596,1.06251,0.521344,7.49598e-05,0.00627905,0.00627905,0.000942384,0.00533667,-7.49598e-05,-0.00541163,-0.00620409,-7.49598e-05,
0.00015,0,1.41815,0.489679,0.490848,1.29201,0.497155,0.000126136,0.00941083,0.00941083,0.00158839,0.00782244,-0.000126136,-0.00794858,-0.0092847,-0.000126136,
0.0002,0,1.69676,0.462015,0.464113,1.51093,0.473405,0.00018583,0.0125333,0.0125333,0.00234386,0.0101895,-0.00018583,-0.0103753,-0.0123475,-0.00018583,
0.00025,0,1.97302,0.434036,0.437402,1.71943,0.450082,0.000253593,0.0156434,0.0156434,0.00320357,0.0124399,-0.000253593,-0.0126935,-0.0153899,-0.000253593,
0.0003,0,2.24663,0.405712,0.410723,1.91764,0.427173,0.000328982,0.0187381,0.0187381,0.00416239,0.0145757,-0.000328982,-0.0149047,-0.0184091,-0.000328982,
0.00035,0,2.51729,0.377018,0.384087,2.10573,0.404666,0.000411565,0.0218143,0.0218143,0.00521526,0.0165991,-0.000411565,-0.0170106,-0.0214028,-0.000411565,
0.0004,0,2.78474,0.347931,0.357505,2.28382,0.382551,0.000500915,0.024869,0.024869,0.00635717,0.0185118,-0.000500915,-0.0190127,-0.0243681,-0.000500915,
0.00045,0,3.04868,0.31843,0.330987,2.45207,0.360817,0.000596611,0.0278991,0.0278991,0.0075832,0.0203159,-0.000596611,-0.0209125,-0.0273025,-0.000596611,
0.0005,0,3.30884,0.288498,0.304546,2.6106,0.339458,0.000698242,0.0309017,0.0309017,0.00888851,0.0220132,-0.000698242,-0.0227114,-0.0302035,-0.000698242,
0.00055,0,3.56496,0.258118,0.278193,2.75955,0.318463,0.000805403,0.0338738,0.0338738,0.0102683,0.0236055,-0.000805403,-0.0244109,-0.0330684,-0.000805403,
0.0006,0,3.81675,0.227278,0.251942,2.89906,0.297827,0.000917694,0.0368125,0.0368125,0.0117178,0.0250946,-0.000917694,-0.0260123,-0.0358948,-0.000917694,
0.00065,0,4.06397,0.195968,0.225806,3.02925,0.277542,0.00103473,0.0397148,0.0397148,0.0132324,0.0264824,-0.00103473,-0.0275171,-0.0386801,-0.00103473,
0.0007,0,4.30636,0.16418,0.199797,3.15025,0.257603,0.00115611,0.0425779,0.0425779,0.0148076,0.0277704,-0.00115611,-0.0289265,-0.0414218,-0.00115611,
0.00075,0,4.54366,0.131906,0.173931,3.26219,0.238005,0.00128147,0.045399,0.045399,0.0164387,0.0289604,-0.00128147,-0.0302419,-0.0441176,-0.00128147,
0.0008,0,4.77564,0.0991445,0.148222,3.3652,0.218744,0.00141044,0.0481754,0.0481754,0.0181213,0.0300541,-0.00141044,-0.0314645,-0.0467649,-0.00141044,
0.00085,0,5.00204,0.0658924,0.122683,3.4594,0.199815,0.00154264,0.0509041,0.0509041,0.019851,0.0310532,-0.00154264,-0.0325958,-0.0493615,-0.00154264,
0.0009,0,5.22265,0.0321505,0.0973295,3.54492,0.181216,0.00167773,0.0535827,0.0535827,0.0216234,0.0319593,-0.00167773,-0.033637,-0.0519049,-0.00167773,
0.00095,0,5.43722,-0.00207898,0.0721768,3.62188,0.162944,0.00181534,0.0562083,0.0562083,0.0234344,0.032774,-0.00181534,-0.0345893,-0.054393,-0.00181534,
0.001,0,5.64555,-0.0367917,0.0472398,3.69041,0.144997,0.00195514,0.0587785,0.0587785,0.0252796,0.033499,-0.00195514,-0.0354541,-0.0568234,-0.00195514,
0.00105,0,5.84741,-0.0719816,0.0225338,3.75063,0.127373,0.00209678,0.0612907,0.0612907,0.0271549,0.0341358,-0.00209678,-0.0362326,-0.0591939,-0.00209678,
0.0011,0,6.04261,-0.107641,-0.00192569,3.80268,0.110071,0.00223993,0.0637424,0.0637424,0.0290562,0.0346862,-0.00223993,-0.0369261,-0.0615025,-0.00223993,
0.00115,0,6.23093,-0.143759,-0.0261231,3.84668,0.0930897,0.00238426,0.0661312,0.0661312,0.0309796,0.0351516,-0.00238426,-0.0375359,-0.0637469,-0.00238426,
0.0012,0,6.4122,-0.180326,-0.0500428,3.88275,0.0764296,0.00252945,0.0684547,0.0684547,0.0329209,0.0355338,-0.00252945,-0.0380632,-0.0659253,-0.00252945,
0.00125,0,6.58622,-0.217329,-0.0736691,3.91103,0.0600903,0.00267519,0.0707107,0.0707107,0.0348764,0.0358342,-0.00267519,-0.0385094,-0.0680355,-0.00267519,
0.0013,0,6.75282,-0.254752,-0.0969864,3.93165,0.0440721,0.00282117,0.0728969,0.0728969,0.0368423,0.0360546,-0.00282117,-0.0388758,-0.0700757,-0.00282117,
0.00135,0,6.91182,-0.29258,-0.119979,3.94473,0.0283757,0.00296709,0.0750111,0.0750111,0.0388146,0.0361965,-0.00296709,-0.0391636,-0.072044,-0.00296709,
0.0014,0,7.06307,-0.330795,-0.142631,3.95042,0.0130019,0.00311266,0.0770513,0.0770513,0.0407898,0.0362615,-0.00311266,-0.0393741,-0.0739387,-0.00311266,
0.00145,0,7.20641,-0.369379,-0.164927,3.94883,-0.00204801,0.00325758,0.0790155,0.0790155,0.0427643,0.0362512,-0.00325758,-0.0395088,-0.0757579,-0.00325758,
0.0015,0,7.3417,-0.408311,-0.186852,3.94012,-0.0167726,0.00340158,0.0809017,0.0809017,0.0447343,0.0361674,-0.00340158,-0.039569,-0.0775001,-0.00340158,
0.00155,0,7.4688,-0.447571,-0.208389,3.92442,-0.0311704,0.00354438,0.0827081,0.0827081,0.0466965,0.0360115,-0.00354438,-0.0395559,-0.0791637,-0.00354438,
0.0016,0,7.58757,-0.487135,-0.229525,3.90186,-0.0452394,0.00368571,0.0844328,0.0844328,0.0486475,0.0357853,-0.00368571,-0.039471,-0.0807471,-0.00368571,
0.00165,0,7.69791,-0.52698,-0.250243,3.8726,-0.0589777,0.00382531,0.0860742,0.0860742,0.0505838,0.0354904,-0.00382531,-0.0393158,-0.0822489,-0.00382531,
0.0017,0,7.79969,-0.567081,-0.27053,3.83676,-0.0723832,0.00396293,0.0876307,0.0876307,0.0525021,0.0351285,-0.00396293,-0.0390915,-0.0836677,-0.00396293,
0.00175,0,7.89282,-0.607412,-0.290369,3.7945,-0.0854535,0.00409832,0.0891007,0.0891007,0.0543994,0.0347013,-0.00409832,-0.0387996,-0.0850023,-0.00409832,
0.0018,0,7.9772,-0.647947,-0.309748,3.74597,-0.0981864,0.00423123,0.0904827,0.0904827,0.0562724,0.0342103,-0.00423123,-0.0384416,-0.0862515,-0.00423123,
0.00185,0,8.05274,-0.688658,-0.328651,3.69131,-0.110579,0.00436144,0.0917755,0.0917755,0.058118,0.0336574,-0.00436144,-0.0380189,-0.087414,-0.00436144,
0.0019,0,8.11938,-0.729515,-0.347065,3.63067,-0.12263,0.00448871,0.0929776,0.0929776,0.0599334,0.0330443,-0.00448871,-0.037533,-0.0884889,-0.00448871,
0.00195,0,8.17703,-0.770491,-0.364976,3.56421,-0.134335,0.00461283,0.0940881,0.0940881,0.0617155,0.0323726,-0.00461283,-0.0369854,-0.0894753,-0.00461283,
0.002,0,8.22565,-0.811554,-0.382372,3.49208,-0.145693,0.00473358,0.0951057,0.0951057,0.0634615,0.0316441,-0.00473358,-0.0363777,-0.0903721,-0.00473358,
0.00205,0,8.26519,-0.852674,-0.399238,3.41444,-0.1567,0.00485075,0.0960294,0.0960294,0.0651687,0.0308606,-0.00485075,-0.0357114,-0.0911786,-0.00485075,
0.0021,0,8.2956,-0.893819,-0.415563,3.33145,-0.167355,0.00496415,0.0968583,0.0968583,0.0668345,0.0300239,-0.00496415,-0.034988,-0.0918942,-0.00496415,
0.00215,0,8.31685,-0.934958,-0.431334,3.24326,-0.177654,0.00507359,0.0975917,0.0975917,0.0684561,0.0291356,-0.00507359,-0.0342092,-0.0925181,-0.00507359,
0.0022,0,8.32893,-0.976058,-0.446539,3.15005,-0.187596,0.00517887,0.0982287,0.0982287,0.0700311,0.0281976,-0.00517887,-0.0333765,-0.0930499,-0.00517887,
0.00225,0,8.33181,-1.01709,-0.461168,3.05198,-0.197176,0.00527983,0.0987688,0.0987688,0.0715571,0.0272117,-0.00527983,-0.0324916,-0.093489,-0.00527983,
0.0023,0,8.32551,-1.05801,-0.475209,2.94921,-0.206394,0.0053763,0.0992115,0.0992115,0.0730317,0.0261798,-0.0053763,-0.0315561,-0.0938352,-0.0053763,
0.00235,0,8.31002,-1.09879,-0.488651,2.84192,-0.215246,0.0054681,0.0995562,0.0995562,0.0744527,0.0251035,-0.0054681,-0.0305716,-0.0940881,-0.0054681,
0.0024,0,8.28536,-1.1394,-0.501486,2.73027,-0.223731,0.00555509,0.0998027,0.0998027,0.0758178,0.0239849,-0.00555509,-0.02954,-0.0942476,-0.00555509,
0.00245,0,8.25155,-1.1798,-0.513702,2.61443,-0.231846,0.00563712,0.0999507,0.0999507,0.077125,0.0228256,-0.00563712,-0.0284628,-0.0943135,-0.00563712,
0.0025,0,8.20863,-1.21996,-0.525292,2.49458,-0.23959,0.00571405,0.1,0.1,0.0783723,0.0216277,-0.00571405,-0.0273417,-0.094286,-0.00571405,
0.00255,0,8.15665,-1.25985,-0.536246,2.3709,-0.246959,0.00578574,0.0999507,0.0999507,0.0795578,0.0203929,-0.00578574,-0.0261786,-0.0941649,-0.00578574,
0.0026,0,8.09564,-1.29942,-0.546557,2.24357,-0.253953,0.00585208,0.0998027,0.0998027,0.0806795,0.0191231,-0.00585208,-0.0249752,-0.0939506,-0.00585208,
0.00265,0,8.02568,-1.33864,-0.556217,2.11275,-0.26057,0.00591293,0.0995562,0.0995562,0.0817359,0.0178203,-0.00591293,-0.0237332,-0.0936433,-0.00591293,
0.0027,0,7.94684,-1.37749,-0.565219,1.97864,-0.266809,0.00596821,0.0992115,0.0992115,0.0827252,0.0164862,-0.00596821,-0.0224544,-0.0932433,-0.00596821,
0.00275,0,7.85919,-1.41591,-0.573557,1.8414,-0.272667,0.00601779,0.0987688,0.0987688,0.0836459,0.0151229,-0.00601779,-0.0211407,-0.092751,-0.00601779,
0.0028,0,7.76283,-1.45389,-0.581225,1.70123,-0.278145,0.00606159,0.0982287,0.0982287,0.0844966,0.0137322,-0.00606159,-0.0197938,-0.0921671,-0.00606159,
0.00285,0,7.65784,-1.49138,-0.588217,1.55831,-0.283241,0.00609953,0.0975917,0.0975917,0.0852757,0.012316,-0.00609953,-0.0184155,-0.0914921,-0.00609953,
0.0029,0,7.54433,-1.52835,-0.59453,1.41282,-0.287954,0.00613151,0.0968583,0.0968583,0.0859821,0.0108762,-0.00613151,-0.0170077,-0.0907268,-0.00613151,
0.00295,0,7.42243,-1.56476,-0.600158,1.26494,-0.292284,0.00615748,0.0960294,0.0960294,0.0866146,0.00941478,-0.00615748,-0.0155723,-0.0898719,-0.00615748,
0.003,0,7.29224,-1.60059,-0.605099,1.11487,-0.29623,0.00617737,0.0951057,0.0951057,0.087172,0.00793363,-0.00617737,-0.014111,-0.0889283,-0.00617737,
0.00305,0,7.1539,-1.6358,-0.609349,0.962784,-0.299793,0.00619111,0.0940881,0.0940881,0.0876534,0.00643466,-0.00619111,-0.0126258,-0.087897,-0.00619111,
0.0031,0,7.00755,-1.67035,-0.612907,0.808874,-0.302973,0.00619868,0.0929776,0.0929776,0.0880579,0.0049198,-0.00619868,-0.0111185,-0.086779,-0.00619868,
0.00315,0,6.85333,-1.70421,-0.61577,0.653326,-0.30577,0.00620001,0.0917755,0.0917755,0.0883845,0.00339095,-0.00620001,-0.00959096,-0.0855755,-0.00620001,
0.0032,0,6.69141,-1.73735,-0.617938,0.496327,-0.308184,0.00619508,0.0904827,0.0904827,0.0886327,0.00185003,-0.00619508,-0.00804511,-0.0842876,-0.00619508,
0.00325,0,6.52193,-1.76975,-0.61941,0.338064,-0.310217,0.00618387,0.0891007,0.0891007,0.0888017,0.000298943,-0.00618387,-0.00648281,-0.0829168,-0.00618387,
0.0033,0,6.34508,-1.80135,-0.620187,0.178725,-0.311869,0.00616635,0.0876307,0.0876307,0.0888911,-0.0012604,-0.00616635,-0.00490595,-0.0814643,-0.00616635,
0.00335,0,6.16102,-1.83215,-0.620269,0.0184975,-0.313143,0.00614252,0.0860742,0.0860742,0.0889003,-0.00282612,-0.00614252,-0.0033164,-0.0799317,-0.00614252,
0.0034,0,5.96994,-1.8621,-0.619658,-0.142433,-0.314039,0.00611237,0.0844328,0.0844328,0.0888291,-0.00439631,-0.00611237,-0.00171606,-0.0783204,-0.00611237,
0.00345,0,5.77204,-1.89118,-0.618355,-0.303878,-0.314559,0.00607592,0.0827081,0.0827081,0.0886772,-0.00596911,-0.00607592,-0.000106808,-0.0766321,-0.00607592,
0.0035,0,5.5675,-1.91935,-0.616364,-0.465654,-0.314706,0.00603316,0.0809017,0.0809017,0.0884443,-0.00754264,-0.00603316,0.00150948,-0.0748685,-0.00603316,
0.00355,0,5.35654,-1.9466,-0.613688,-0.627575,-0.314482,0.00598412,0.0790155,0.0790155,0.0881306,-0.00911505,-0.00598412,0.00313093,-0.0730314,-0.00598412,
0.0036,0,5.13937,-1.97288,-0.610331,-0.789457,-0.31389,0.00592882,0.0770513,0.0770513,0.0877358,-0.0106845,-0.00592882,0.00475567,-0.0711225,-0.00592882,
0.00365,0,4.91619,-1.99819,-0.606297,-0.951116,-0.312932,0.00586731,0.0750111,0.0750111,0.0872603,-0.0122492,-0.00586731,0.00638185,-0.0691438,-0.00586731,
0.0037,0,4.68725,-2.02248,-0.601593,-1.11237,-0.311612,0.00579962,0.0728969,0.0728969,0.0867041,-0.0138072,-0.00579962,0.0080076,-0.0670972,-0.00579962,
0.00375,0,4.45275,-2.04574,-0.596222,-1.27304,-0.309933,0.00572579,0.0707107,0.0707107,0.0860676,-0.0153569,-0.00572579,0.00963109,-0.0649849,-0.00572579,
0.0038,0,4.21294,-2.06794,-0.590193,-1.43295,-0.307899,0.00564589,0.0684547,0.0684547,0.0853511,-0.0168964,-0.00564589,0.0112505,-0.0628088,-0.00564589,
0.00385,0,3.96806,-2.08906,-0.583512,-1.59191,-0.305514,0.00555997,0.0661312,0.0661312,0.0845551,-0.0184239,-0.00555997,0.012864,-0.0605712,-0.00555997,
0.0039,0,3.71836,-2.10907,-0.576187,-1.74976,-0.302782,0.00546811,0.0637424,0.0637424,0.0836803,-0.0199379,-0.00546811,0.0144697,-0.0582743,-0.00546811,
0.00395,0,3.46407,-2.12796,-0.568227,-1.90631,-0.299708,0.00537038,0.0612907,0.0612907,0.0827271,-0.0214364,-0.00537038,0.016066,-0.0559203,-0.00537038,
0.004,0,3.20546,-2.14571,-0.559639,-2.0614,-0.296296,0.00526685,0.0587785,0.0587785,0.0816964,-0.0229179,-0.00526685,0.017651,-0.0535117,-0.00526685,
0.00405,0,2.94278,-2.16229,-0.550434,-2.21485,-0.292552,0.00515763,0.0562083,0.0562083,0.080589,-0.0243806,-0.00515763,0.019223,-0.0510507,-0.00515763,
0.0041,0,2.67629,-2.1777,-0.540621,-2.36651,-0.288481,0.0050428,0.0535827,0.0535827,0.0794057,-0.025823,-0.0050428,0.0207802,-0.0485399,-0.0050428,
0.00415,0,2.40627,-2.1919,-0.530212,-2.51619,-0.284089,0.00492246,0.0509041,0.0509041,0.0781476,-0.0272435,-0.00492246,0.022321,-0.0459817,-0.00492246,
0.0042,0,2.13298,-2.20489,-0.519216,-2.66375,-0.27938,0.00479672,0.0481754,0.0481754,0.0768157,-0.0286404,-0.00479672,0.0238437,-0.0433786,-0.00479672,
0.00425,0,1.85669,-2.21665,-0.507647,-2.80901,-0.274362,0.0046657,0.045399,0.045399,0.0754112,-0.0300122,-0.0046657,0.0253465,-0.0407333,-0.0046657,
0.0043,0,1.57768,-2.22716,-0.495517,-2.95183,-0.269041,0.00452951,0.0425779,0.0425779,0.0739353,-0.0313574,-0.00452951,0.0268279,-0.0380484,-0.00452951,
0.00435,0,1.29623,-2.23642,-0.482837,-3.09205,-0.263423,0.00438827,0.0397148,0.0397148,0.0723893,-0.0326745,-0.00438827,0.0282862,-0.0353265,-0.00438827,
0.0044,0,1.01261,-2.24442,-0.469622,-3.22951,-0.257516,0.00424213,0.0368125,0.0368125,0.0707745,-0.0339621,-0.00424213,0.02972,-0.0325703,-0.00424213,
0.00445,0,0.72712,-2.25114,-0.455885,-3.36408,-0.251325,0.0040912,0.0338738,0.0338738,0.0690925,-0.0352187,-0.0040912,0.0311275,-0.0297826,-0.0040912,
0.0045,0,0.440034,-2.25657,-0.44164,-3.4956,-0.244859,0.00393563,0.0309017,0.0309017,0.0673447,-0.036443,-0.00393563,0.0325074,-0.0269661,-0.00393563,
0.00455,0,0.151641,-2.26071,-0.426903,-3.62393,-0.238125,0.00377557,0.0278991,0.0278991,0.0655327,-0.0376336,-0.00377557,0.0338581,-0.0241235,-0.00377557,
0.0046,0,-0.137773,-2.26355,-0.411689,-3.74894,-0.23113,0.00361117,0.024869,0.024869,0.0636583,-0.0387893,-0.00361117,0.0351781,-0.0212578,-0.00361117,
0.00465,0,-0.427917,-2.26509,-0.396012,-3.8705,-0.223883,0.00344258,0.0218143,0.0218143,0.061723,-0.0399087,-0.00344258,0.0364661,-0.0183717,-0.00344258,
0.0047,0,-0.718502,-2.26532,-0.37989,-3.98846,-0.216392,0.00326996,0.0187381,0.0187381,0.0597288,-0.0409907,-0.00326996,0.0377207,-0.0154682,-0.00326996,
0.00475,0,-1.00924,-2.26424,-0.363339,-4.10272,-0.208665,0.00309348,0.0156434,0.0156434,0.0576774,-0.042034,-0.00309348,0.0389405,-0.01255,-0.00309348,
0.0048,0,-1.29984,-2.26184,-0.346376,-4.21314,-0.200711,0.0029133,0.0125333,0.0125333,0.0555709,-0.0430375,-0.0029133,0.0401242,-0.00962002,-0.0029133,
0.00485,0,-1.59001,-2.25813,-0.329018,-4.3196,-0.192538,0.0027296,0.00941083,0.00941083,0.0534111,-0.0440002,-0.0027296,0.0412706,-0.00668123,-0.0027296,
0.0049,0,-1.87946,-2.25311,-0.311283,-4.422,-0.184156,0.00254255,0.00627905,0.00627905,0.0512001,-0.044921,-0.00254255,0.0423785,-0.00373651,-0.00254255,
0.00495,0,-2.1679,-2.24677,-0.293189,-4.52023,-0.175572,0.00235233,0.00314108,0.00314108,0.04894,-0.0457989,-0.00235233,0.0434465,-0.000788748,-0.00235233,
0.005,0,-2.45505,-2.23913,-0.274754,-4.61417,-0.166798,0.00215912,8.9795e-12,8.9795e-12,0.0466329,-0.0466329,-0.00215912,0.0444737,0.00215912,-0.00215912,
0.00505,0,-2.74061,-2.23019,-0.255998,-4.70374,-0.157842,0.00196312,-0.00314108,-0.00314108,0.044281,-0.0474221,-0.00196312,0.045459,0.0051042,-0.00196312,
0.0051,0,-3.02431,-2.21996,-0.236938,-4.78883,-0.148713,0.00176451,-0.00627905,-0.00627905,0.0418866,-0.0481656,-0.00176451,0.0464011,0.00804356,-0.00176451,
0.00515,0,-3.30586,-2.20843,-0.217595,-4.86935,-0.139421,0.00156348,-0.00941083,-0.00941083,0.0394519,-0.0488627,-0.00156348,0.0472993,0.0109743,-0.00156348,
0.0052,0,-3.58498,-2.19563,-0.197989,-4.94522,-0.129977,0.00136023,-0.0125333,-0.0125333,0.0369793,-0.0495126,-0.00136023,0.0481524,0.0138936,-0.00136023,
0.00525,0,-3.86139,-2.18155,-0.178138,-5.01635,-0.12039,0.00115496,-0.0156434,-0.0156434,0.0344711,-0.0501146,-0.00115496,0.0489596,0.0167984,-0.00115496,
0.0053,0,-4.13481,-2.16621,-0.158063,-5.08268,-0.110669,0.000947862,-0.0187381,-0.0187381,0.0319298,-0.0506679,-0.000947862,0.0497201,0.019686,-0.000947862,
0.00535,0,-4.40498,-2.14963,-0.137784,-5.14412,-0.100827,0.000739141,-0.0218143,-0.0218143,0.0293577,-0.0511721,-0.000739141,0.0504329,0.0225535,-0.000739141,
0.0054,0,-4.67161,-2.13181,-0.117322,-5.20061,-0.0908716,0.000529,-0.024869,-0.024869,0.0267574,-0.0516264,-0.000529,0.0510974,0.025398,-0.000529,
0.00545,0,-4.93445,-2.11278,-0.0966968,-5.2521,-0.0808145,0.000317646,-0.0278991,-0.0278991,0.0241314,-0.0520305,-0.000317646,0.0517128,0.0282168,-0.000317646,
0.0055,0,-5.19324,-2.09254,-0.0759301,-5.29852,-0.0706659,0.000105284,-0.0309017,-0.0309017,0.0214821,-0.0523838,-0.000105284,0.0522785,0.031007,-0.000105284,
0.00555,0,-5.4477,-2.07111,-0.0550423,-5.33982,-0.0604362,-0.000107878,-0.0338738,-0.0338738,0.0188122,-0.052686,0.000107878,0.0527939,0.0337659,0.000107878,
0.0056,0,-5.6976,-2.04851,-0.0340545,-5.37597,-0.050136,-0.00032163,-0.0368125,-0.0368125,0.0161242,-0.0529367,0.00032163,0.0532583,0.0364908,0.00032163,
0.00565,0,-5.94267,-2.02477,-0.0129878,-5.40691,-0.039776,-0.000535763,-0.0397148,-0.0397148,0.0134208,-0.0531356,0.000535763,0.0536713,0.039179,0.000535763,
0.0057,0,-6.18268,-1.99989,0.0081366,-5.43261,-0.0293668,-0.000750067,-0.0425779,-0.0425779,0.0107045,-0.0532824,0.000750067,0.0540325,0.0418279,0.000750067,
0.00575,0,-6.41738,-1.97391,0.0292975,-5.45305,-0.0189191,-0.000964332,-0.045399,-0.045399,0.00797794,-0.053377,0.000964332,0.0543413,0.0444347,0.000964332,
0.0058,0,-6.64655,-1.94684,0.0504737,-5.4682,-0.00844362,-0.00117835,-0.0481754,-0.0481754,0.00524384,-0.0534192,0.00117835,0.0545976,0.046997,0.00117835,
0.00585,0,-6.86994,-1.91871,0.0716439,-5.47804,0.00204888,-0.0013919,-0.0509041,-0.0509041,0.00250482,-0.053409,0.0013919,0.0548009,0.0495122,0.0013919,
0.0059,0,-7.08734,-1.88955,0.0927869,-5.48255,0.0125477,-0.00160478,-0.0535827,-0.0535827,-0.000236458,-0.0533462,0.00160478,0.054951,0.0519779,0.00160478,
0.00595,0,-7.29852,-1.85937,0.113881,-5.48174,0.0230421,-0.00181679,-0.0562083,-0.0562083,-0.00297733,-0.053231,0.00181679,0.0550478,0.0543916,0.00181679,
0.006,0,-7.50329,-1.8282,0.134906,-5.47559,0.0335214,-0.0020277,-0.0587785,-0.0587785,-0.00571512,-0.0530634,0.0020277,0.0550911,0.0567508,0.0020277,
0.00605,0,-7.70142,-1.79608,0.155841,-5.46411,0.0439749,-0.00223731,-0.0612907,-0.0612907,-0.00844718,-0.0528435,0.00223731,0.0550808,0.0590534,0.00223731,
0.0061,0,-7.89273,-1.76303,0.176663,-5.44731,0.054392,-0.00244542,-0.0637424,-0.0637424,-0.0111708,-0.0525716,0.00244542,0.055017,0.061297,0.00244542,
0.00615,0,-8.07702,-1.72908,0.197353,-5.4252,0.0647621,-0.00265182,-0.0661312,-0.0661312,-0.0138834,-0.0522478,0.00265182,0.0548996,0.0634794,0.00265182,
0.0062,0,-8.25411,-1.69427,0.21789,-5.39779,0.0750747,-0.00285631,-0.0684547,-0.0684547,-0.0165823,-0.0518724,0.00285631,0.0547287,0.0655984,0.00285631,
0.00625,0,-8.42381,-1.65861,0.238253,-5.36513,0.0853193,-0.00305868,-0.0707107,-0.0707107,-0.0192649,-0.0514458,0.00305868,0.0545045,0.067652,0.00305868,
0.0063,0,-8.58596,-1.62215,0.258422,-5.32722,0.0954855,-0.00325874,-0.0728969,-0.0728969,-0.0219285,-0.0509684,0.00325874,0.0542271,0.0696381,0.00325874,
0.00635,0,-8.74039,-1.58491,0.278377,-5.28412,0.105563,-0.00345628,-0.0750111,-0.0750111,-0.0245706,-0.0504405,0.00345628,0.0538968,0.0715548,0.00345628,
0.0064,0,-8.88696,-1.54694,0.298097,-5.23585,0.115542,-0.0036511,-0.0770513,-0.0770513,-0.0271885,-0.0498628,0.0036511,0.0535139,0.0734002,0.0036511,
0.00645,0,-9.0255,-1.50825,0.317563,-5.18247,0.125412,-0.00384303,-0.0790155,-0.0790155,-0.0297797,-0.0492358,0.00384303,0.0530788,0.0751725,0.00384303,
